<Qucs Dataset 0.0.19>
<indep frequency 201>
  +3.90000000000000000000e+10
  +3.99325043253510742188e+10
  +4.08873051716457138062e+10
  +4.18649356568895339966e+10
  +4.28659416461355438232e+10
  +4.38908820562706298828e+10
  +4.49403291680897598267e+10
  +4.60148689458319396973e+10
  +4.71151013643563385010e+10
  +4.82416407441413879395e+10
  +4.93951160942938156128e+10
  +5.05761714637591476440e+10
  +5.17854663009297332764e+10
  +5.30236758218512649536e+10
  +5.42914913872330474854e+10
  +5.55896208884729385376e+10
  +5.69187891429121170044e+10
  +5.82797382985406188965e+10
  +5.96732282483795471191e+10
  +6.11000370547712402344e+10
  +6.25609613838144607544e+10
  +6.40568169501869888306e+10
  +6.55884389726042175293e+10
  +6.71566826401677703857e+10
  +6.87624235898648529053e+10
  +7.04065583954846496582e+10
  +7.20900050682249755859e+10
  +7.38137035692686004639e+10
  +7.55786163346154022217e+10
  +7.73857288124635772705e+10
  +7.92360500134396667480e+10
  +8.11306130739849853516e+10
  +8.30704758332125549316e+10
  +8.50567214235572509766e+10
  +8.70904588755482635498e+10
  +8.91728237370420684814e+10
  +9.13049787072615966797e+10
  +9.34881142859951782227e+10
  +9.57234494383184356689e+10
  +9.80122322752096252441e+10
  +1.00355740750439086914e+11
  +1.02755283374121002197e+11
  +1.05212199943327255249e+11
  +1.07727862290169708252e+11
  +1.10303675047769943237e+11
  +1.12941076434543395996e+11
  +1.15641539057236190796e+11
  +1.18406570733162567139e+11
  +1.21237715332102630615e+11
  +1.24136553638330032349e+11
  +1.27104704233251022339e+11
  +1.30143824399147872925e+11
  +1.33255611044530838013e+11
  +1.36441801651616134644e+11
  +1.39704175246457855225e+11
  +1.43044553392276489258e+11
  +1.46464801206538299561e+11
  +1.49966828402353271484e+11
  +1.53552590354773193359e+11
  +1.57224089192585723877e+11
  +1.60983374916213165283e+11
  +1.64832546542340942383e+11
  +1.68773753275914428711e+11
  +1.72809195710158660889e+11
  +1.76941127055291107178e+11
  +1.81171854396613006592e+11
  +1.85503739982682647705e+11
  +1.89939202544289154053e+11
  +1.94480718644963134766e+11
  +1.99130824063778930664e+11
  +2.03892115211219879150e+11
  +2.08767250578897918701e+11
  +2.13758952223935729980e+11
  +2.18870007288841735840e+11
  +2.24103269557725524902e+11
  +2.29461661049722930908e+11
  +2.34948173650520660400e+11
  +2.40565870782891052246e+11
  +2.46317889117170410156e+11
  +2.52207440322634765625e+11
  +2.58237812860752227783e+11
  +2.64412373821312561035e+11
  +2.70734570802459259033e+11
  +2.77207933835673706055e+11
  +2.83836077356786499023e+11
  +2.90622702224117004395e+11
  +2.97571597784865844727e+11
  +3.04686643990917602539e+11
  +3.11971813565231384277e+11
  +3.19431174220031311035e+11
  +3.27068890928035217285e+11
  +3.34889228247988464355e+11
  +3.42896552705802124023e+11
  +3.51095335232626037598e+11
  +3.59490153661216186523e+11
  +3.68085695281990722656e+11
  +3.76886759460203857422e+11
  +3.85898260315696105957e+11
  +3.95125229466717651367e+11
  +4.04572818839360107422e+11
  +4.14246303544159606934e+11
  +4.24151084821483215332e+11
  +4.34292693057339416504e+11
  +4.44676790871296691895e+11
  +4.55309176278238220215e+11
  +4.66195785925712585449e+11
  +4.77342698408691223145e+11
  +4.88756137663585083008e+11
  +5.00442476443410339355e+11
  +5.12408239876048339844e+11
  +5.24660109107585693359e+11
  +5.37204925032764892578e+11
  +5.50049692114635498047e+11
  +5.63201582295531250000e+11
  +5.76667939001560668945e+11
  +5.90456281242848999023e+11
  +6.04574307811815185547e+11
  +6.19029901581831665039e+11
  +6.33831133908670410156e+11
  +6.48986269137183837891e+11
  +6.64503769215744873047e+11
  +6.80392298421021118164e+11
  +6.96660728195717773438e+11
  +7.13318142101993041992e+11
  +7.30373840893313842773e+11
  +7.47837347707577636719e+11
  +7.65718413384408325195e+11
  +7.84027021909586059570e+11
  +8.02773395989658203125e+11
  +8.21968002759840942383e+11
  +8.41621559628398559570e+11
  +8.61745040260762695312e+11
  +8.82349680706736816406e+11
  +9.03446985674203247070e+11
  +9.25048734952833618164e+11
  +9.47166989991399536133e+11
  +9.69814100632341430664e+11
  +9.93002712007370117188e+11
  +1.01674577159794030762e+12
  +1.04105653646454272461e+12
  +1.06594858064885534668e+12
  +1.09143580275287878418e+12
  +1.11753243369929125977e+12
  +1.14425304467736035156e+12
  +1.17161255527884228516e+12
  +1.19962624182840991211e+12
  +1.22830974591327270508e+12
  +1.25767908311673510742e+12
  +1.28775065196057934570e+12
  +1.31854124306126977539e+12
  +1.35006804850507519531e+12
  +1.38234867144736401367e+12
  +1.41540113594141528320e+12
  +1.44924389700224096680e+12
  +1.48389585091104174805e+12
  +1.51937634576604394531e+12
  +1.55570519228560644531e+12
  +1.59290267486964379883e+12
  +1.63098956292552221680e+12
  +1.66998712246476611328e+12
  +1.70991712797704858398e+12
  +1.75080187458808642578e+12
  +1.79266419050824438477e+12
  +1.83552744977878173828e+12
  +1.87941558532286743164e+12
  +1.92435310230865673828e+12
  +1.97036509183187768555e+12
  +2.01747724492556982422e+12
  +2.06571586690481250000e+12
  +2.11510789205443066406e+12
  +2.16568089866789184570e+12
  +2.21746312444578955078e+12
  +2.27048348226251269531e+12
  +2.32477157630989648438e+12
  +2.38035771862687597656e+12
  +2.43727294602437304688e+12
  +2.49554903741485937500e+12
  +2.55521853155627099609e+12
  +2.61631474522020556641e+12
  +2.67887179179450390625e+12
  +2.74292460033064062500e+12
  +2.80850893504654589844e+12
  +2.87566141529572656250e+12
  +2.94441953601389160156e+12
  +3.01482168865443408203e+12
  +3.08690718262449804688e+12
  +3.16071626723359130859e+12
  +3.23629015416699951172e+12
  +3.31367104049653369141e+12
  +3.39290213224149755859e+12
  +3.47402766849298730469e+12
  +3.55709294611501318359e+12
  +3.64214434503624511719e+12
  +3.72922935414648535156e+12
  +3.81839659781232617188e+12
  +3.90969586302683398438e+12
  +4.00317812720836523438e+12
  +4.09889558666407373047e+12
  +4.19690168573399218750e+12
  +4.29725114663194482422e+12
  +4.40000000000000000000e+12
</indep>
<dep dBS11 frequency>
  -5.05789756207493568541e-12
  -5.84864608464962394885e-12
  -6.75511390321102921959e-12
  -7.80623084175587578394e-12
  -9.02128344961537159653e-12
  -1.04282372233197675857e-11
  -1.20579506417990417152e-11
  -1.39432108389163610030e-11
  -1.61264482232005630871e-11
  -1.86472002207809459783e-11
  -2.15787557191165126867e-11
  -2.49722240739357165496e-11
  -2.89008941726981777315e-11
  -3.34583057796617332764e-11
  -3.87447489513507955076e-11
  -4.48730500013559288836e-11
  -5.19840007397991717905e-11
  -6.02386438536019653352e-11
  -6.98221302163520225916e-11
  -8.09562551453695356660e-11
  -9.38917437819757377996e-11
  -1.08936216588024887822e-10
  -1.26432009814175277906e-10
  -1.46787998306288914444e-10
  -1.70480559832902022301e-10
  -1.98075754616961830650e-10
  -2.30233182645700007968e-10
  -2.67728163202374514350e-10
  -3.11479700362814601140e-10
  -3.62543732703173396509e-10
  -4.22195101134615924622e-10
  -4.91924655920956060509e-10
  -5.73489401706971015007e-10
  -6.68968428511536105161e-10
  -7.80830414650388670091e-10
  -9.11992450711730007878e-10
  -1.06591261499321655991e-09
  -1.24671437174543087048e-09
  -1.45929554017599787609e-09
  -1.70950283772159446426e-09
  -2.00429195840817689388e-09
  -2.35202265705689321158e-09
  -2.76267958027549333827e-09
  -3.24825510446483825647e-09
  -3.82318328318210731663e-09
  -4.50486058397741959145e-09
  -5.31428813049328667883e-09
  -6.27690681006044254865e-09
  -7.42358281638283996332e-09
  -8.79186609690224392232e-09
  -1.04275766715111633795e-08
  -1.23867583600449308725e-08
  -1.47381812121239275517e-08
  -1.75664639995893037747e-08
  -2.09760916048771575854e-08
  -2.50965240281601994213e-08
  -3.00887210273260564940e-08
  -3.61535761265184239916e-08
  -4.35428520904059314787e-08
  -5.25733565391767559386e-08
  -6.36455949366562552590e-08
  -7.72682273843920254397e-08
  -9.40905298176673777454e-08
  -1.14945657118550614419e-07
  -1.40908797860654520327e-07
  -1.73375718319684276124e-07
  -2.14169877591641391596e-07
  -2.65689620665685883347e-07
  -3.31112187300231566636e-07
  -4.14678994969709849132e-07
  -5.22098765162480841062e-07
  -6.61122796338358545147e-07
  -8.42375380988250517950e-07
  -1.08056688403477580443e-06
  -1.39628854650507477251e-06
  -1.81870511133994149097e-06
  -2.38965506208600434346e-06
  -3.16999564937994417522e-06
  -4.24959542716194970584e-06
  -5.76337430463876164731e-06
  -7.91759412614544602475e-06
  -1.10339499250170178257e-05
  -1.56254092922695476638e-05
  -2.25303737005534862570e-05
  -3.31575655664616183440e-05
  -4.99490382901280455773e-05
  -7.72911838892016928113e-05
  -1.23390696399397047783e-04
  -2.04346016979164844156e-04
  -3.53543386815268888702e-04
  -6.44979995790709499139e-04
  -1.25648718870565606100e-03
  -2.66084655095600577587e-03
  -6.28973390111823432713e-03
  -1.73095825963652596990e-02
  -5.96982594030958102493e-02
  -2.98434982191363329385e-01
  -2.84058104638556585542e+00
  -1.67746140761789064300e+01
  -1.02240768819840806003e+01
  -5.28807491210277973437e+01
  -1.01072916194393069844e+01
  -1.64444563133156442802e+01
  -2.87042734640050056782e+00
  -2.99922325919639742864e-01
  -5.98734479766278790414e-02
  -1.73447997719303644015e-02
  -6.29949621032823651318e-03
  -2.66419068426278259423e-03
  -1.25781775799325892112e-03
  -6.45571853328870404187e-04
  -3.53830384217660093901e-04
  -2.04495097732632411360e-04
  -1.23472609766101448434e-04
  -7.73383439735277587734e-05
  -4.99772827270130110336e-05
  -3.31750624094182298496e-05
  -2.25415341044227000671e-05
  -1.56327120928261100493e-05
  -1.10388371745917639448e-05
  -7.92093070478172696055e-06
  -5.76569315027575544024e-06
  -4.25123292141270276736e-06
  -3.17116879847636785606e-06
  -2.39050657624384675989e-06
  -1.81933055028852309536e-06
  -1.39675293397516145937e-06
  -1.08091513652107196307e-06
  -8.42638938486280442872e-07
  -6.61323923255697209024e-07
  -5.22253455842972371366e-07
  -4.14798828098112374434e-07
  -3.31205627745883268592e-07
  -2.65762939451781419731e-07
  -2.14227726634885647338e-07
  -1.73421613558632365335e-07
  -1.40945397946507735543e-07
  -1.14974970745654848669e-07
  -9.41141153393553975877e-08
  -7.72872834597976641872e-08
  -6.36610531061716727786e-08
  -5.25859323338203398967e-08
  -4.35531173563903306985e-08
  -3.61619879550792017516e-08
  -3.00956410412739915058e-08
  -2.51022212748655229561e-08
  -2.09808023445740228419e-08
  -1.75703608468974121673e-08
  -1.47414194237676063279e-08
  -1.23894536553216341927e-08
  -1.04298254831685640184e-08
  -8.79374557113836065489e-09
  -7.42515177717360430626e-09
  -6.27822504570912611267e-09
  -5.31539903573611630957e-09
  -4.50579308863854458926e-09
  -3.82397113872297467650e-09
  -3.24891470445245345241e-09
  -2.76323696155151637704e-09
  -2.35249324886082610496e-09
  -2.00469311863444834158e-09
  -1.70983649502515348808e-09
  -1.45958869572592874248e-09
  -1.24695931092200573461e-09
  -1.06612283838097662443e-09
  -9.12170851293079883737e-10
  -7.80977956752798008508e-10
  -6.69095719737140670646e-10
  -5.73598370710705870694e-10
  -4.92018195685222301837e-10
  -4.22274175986880979761e-10
  -3.62613164280771045887e-10
  -3.11534667028412098304e-10
  -2.67780236885571588161e-10
  -2.30277541709163808574e-10
  -1.98110470405759311171e-10
  -1.70508525329433166649e-10
  -1.46812106492953551437e-10
  -1.26452260690973459242e-10
  -1.08956467464822991611e-10
  -9.39148876411735153094e-11
  -8.09716843848346991313e-11
  -6.98356308008839711535e-11
  -6.02511801106673258324e-11
  -5.19975013243310686536e-11
  -4.48788359661553150999e-11
  -3.87505349161501687992e-11
  -3.34650560719276558585e-11
  -2.89076444649640970825e-11
  -2.49751170563353935019e-11
  -2.15826130289827486231e-11
  -1.86558791679799606793e-11
  -1.61312698605333483141e-11
  -1.39480324762491413832e-11
  -1.20589149692655958526e-11
  -1.04320945331859889818e-11
  -9.02514075948159137702e-12
  -7.80912382415553981152e-12
  -6.75511390321102921959e-12
  -5.84478877478340578394e-12
  -5.06175487194115304253e-12
</dep>
<dep dBS21 frequency>
  -1.19336335474633656872e+02
  -1.18709297773230346706e+02
  -1.18081706884411005376e+02
  -1.17453535505015253193e+02
  -1.16824754956941148976e+02
  -1.16195335115157135419e+02
  -1.15565244331673483202e+02
  -1.14934449355212677801e+02
  -1.14302915246310021757e+02
  -1.13670605287549875584e+02
  -1.13037480888621374220e+02
  -1.12403501485857177045e+02
  -1.11768624435885584489e+02
  -1.11132804903007553321e+02
  -1.10495995739870366492e+02
  -1.09858147360979387486e+02
  -1.09219207608554654598e+02
  -1.08579121610192345315e+02
  -1.07937831627752572672e+02
  -1.07295276896841883740e+02
  -1.06651393456206434962e+02
  -1.06006113966293924022e+02
  -1.05359367516172056867e+02
  -1.04711079417926654855e+02
  -1.04061170987575607683e+02
  -1.03409559311451019425e+02
  -1.02756156996903115441e+02
  -1.02100871906069542661e+02
  -1.01443606871336285735e+02
  -1.00784259390979471505e+02
  -1.00122721303329953457e+02
  -9.94588784376343113536e+01
  -9.87926102396018279705e+01
  -9.81237893694168548109e+01
  -9.74522812697629916556e+01
  -9.67779437011415808456e+01
  -9.61006262414756520229e+01
  -9.54201697466520499802e+01
  -9.47364057682838023311e+01
  -9.40491559245453174753e+01
  -9.33582312194555754559e+01
  -9.26634313054327662940e+01
  -9.19645436833244218633e+01
  -9.12613428334050666990e+01
  -9.05535892700214617435e+01
  -8.98410285116369777825e+01
  -8.91233899569562311171e+01
  -8.84003856565834382764e+01
  -8.76717089682483390334e+01
  -8.69370330819914727272e+01
  -8.61960093997963952006e+01
  -8.54482657519385497835e+01
  -8.46934044297358923359e+01
  -8.39310000113561898161e+01
  -8.31605969537829139426e+01
  -8.23817069198492077930e+01
  -8.15938058042997340635e+01
  -8.07963304169596483462e+01
  -7.99886747740913648386e+01
  -7.91701859406456946999e+01
  -7.83401593560635376434e+01
  -7.74978335641555418078e+01
  -7.66423842528993759515e+01
  -7.57729174921082204719e+01
  -7.48884620350392822274e+01
  -7.39879605230920418535e+01
  -7.30702593994412268330e+01
  -7.21340972960072832620e+01
  -7.11780916062652693199e+01
  -7.02007228909614440227e+01
  -6.92003166807313192521e+01
  -6.81750221333316801520e+01
  -6.71227868661357121027e+01
  -6.60413271062452906790e+01
  -6.49280920664936331832e+01
  -6.37802211452247718171e+01
  -6.25944921317392299898e+01
  -6.13672580352661256597e+01
  -6.00943693809274819273e+01
  -5.87710777383107796368e+01
  -5.73919147254817261228e+01
  -5.59505385443305698345e+01
  -5.44395369051043971353e+01
  -5.28501704267401279935e+01
  -5.11720333205600894644e+01
  -4.93925967783362267483e+01
  -4.74965821631943541092e+01
  -4.54650806554304480755e+01
  -4.32742835153912324131e+01
  -4.08935927036399107237e+01
  -3.82827031479699115835e+01
  -3.53868906930770847907e+01
  -3.21289751700172914184e+01
  -2.83946648783943444982e+01
  -2.40036290755494441385e+01
  -1.86480413627647081398e+01
  -1.17777088611413649488e+01
  -3.18692203471373547430e+00
  -9.22415985059693716019e-02
  -4.33376409072046497872e-01
  -2.23722937690462037724e-05
  -4.45815600563879199658e-01
  -9.96115592415492412393e-02
  -3.15482776949600474126e+00
  -1.17568533337992420229e+01
  -1.86354027547716718516e+01
  -2.39948197193912413638e+01
  -2.83879342903585261126e+01
  -3.21235220863429447036e+01
  -3.53822947881644651602e+01
  -3.82787200243719922810e+01
  -4.08900687868516996559e+01
  -4.32711163473207136576e+01
  -4.54621985728487771894e+01
  -4.74939330983048364487e+01
  -4.93901417034429712771e+01
  -5.11697422149371590194e+01
  -5.28480196891878435395e+01
  -5.44375076338183987446e+01
  -5.59486153578167204614e+01
  -5.73900849325814874646e+01
  -5.87693307402322204780e+01
  -6.00926962315111978796e+01
  -6.13656511116823892849e+01
  -6.25929448838503930119e+01
  -6.37787279020238528915e+01
  -6.49266478846465417973e+01
  -6.60399276501606635748e+01
  -6.71214283119668806421e+01
  -6.81737010913726351191e+01
  -6.91990301321116305644e+01
  -7.01994681355737668582e+01
  -7.11768662196024877176e+01
  -7.21328990931296374356e+01
  -7.30690864046963781675e+01
  -7.39868109445137065450e+01
  -7.48873342425766850283e+01
  -7.57718099990144509093e+01
  -7.66412956997402403658e+01
  -7.74967627050049259196e+01
  -7.83391050465340725850e+01
  -7.91691471274668003844e+01
  -7.99876504859993104901e+01
  -8.07953197567045577898e+01
  -8.15928079416076599273e+01
  -8.23807210852051099437e+01
  -8.31596224329204574133e+01
  -8.39300361403599310961e+01
  -8.46924505906747384643e+01
  -8.54473213689629318424e+01
  -8.61950739356396979929e+01
  -8.69361060348272189913e+01
  -8.76707898688592166536e+01
  -8.83994740658060749183e+01
  -8.91224854633693723827e+01
  -8.98401307294656845670e+01
  -9.05526978372334525602e+01
  -9.12604574099780165852e+01
  -9.19636639496660990289e+01
  -9.26625569609377208735e+01
  -9.33573619811848800509e+01
  -9.40482915260161433935e+01
  -9.47355459583585570726e+01
  -9.54193142885170999534e+01
  -9.60997749117007202813e+01
  -9.67770962888131975888e+01
  -9.74514375756837978315e+01
  -9.81229492053657850192e+01
  -9.87917734276490193679e+01
  -9.94580448095068447856e+01
  -1.00121890699822827742e+02
  -1.00783431661408528157e+02
  -1.01442781873029815642e+02
  -1.02100049503895178304e+02
  -1.02755337062826598071e+02
  -1.03408741724124951133e+02
  -1.04060355631955502531e+02
  -1.04710266184912484277e+02
  -1.05358556302272674543e+02
  -1.06005304673313219155e+02
  -1.06650585990949423376e+02
  -1.07294471170838960461e+02
  -1.07937027557001542277e+02
  -1.08578319114915288424e+02
  -1.09218406612970312608e+02
  -1.09857347793089004995e+02
  -1.10495197531256224011e+02
  -1.11132007988643579210e+02
  -1.11767828753958468724e+02
  -1.12402706977598768390e+02
  -1.13036687498149873932e+02
  -1.13669812961720126054e+02
  -1.14302123934573316433e+02
  -1.14933659009482823876e+02
  -1.15564454906201461881e+02
  -1.16194546566412100219e+02
  -1.16823967243498302082e+02
  -1.17452748587449931961e+02
  -1.18080920725197486831e+02
  -1.18708512336647686425e+02
  -1.19335550726675165834e+02
</dep>
<dep S[1,1] frequency>
  -9.99896750769045383755e-01+j1.43696833765017857598e-02
  -9.99891660000437831890e-01+j1.47196555741724334487e-02
  -9.99886313391557535191e-01+j1.50784710990383551826e-02
  -9.99880697599888956795e-01+j1.54463770950338131344e-02
  -9.99874798538564424355e-01+j1.58236293367865661630e-02
  -9.99868601330038409003e-01+j1.62104926486401137997e-02
  -9.99862090256418478695e-01+j1.66072413509699076672e-02
  -9.99855248706166155337e-01+j1.70141597359395393974e-02
  -9.99848059116855036876e-01+j1.74315425750229333057e-02
  -9.99840502913644124661e-01+j1.78596956608327757376e-02
  -9.99832560443083218082e-01+j1.82989363860242490456e-02
  -9.99824210901846255339e-01+j1.87495943622927978278e-02
  -9.99815432259913094981e-01+j1.92120120827690803178e-02
  -9.99806201177707354333e-01+j1.96865456314136953730e-02
  -9.99796492916624091052e-01+j2.01735654433605506031e-02
  -9.99786281242322938390e-01+j2.06734571205308623187e-02
  -9.99775538320097245659e-01+j2.11866223072517019521e-02
  -9.99764234601558610116e-01+j2.17134796310800154417e-02
  -9.99752338701782372610e-01+j2.22544657145378015073e-02
  -9.99739817265968722104e-01+j2.28100362640349003940e-02
  -9.99726634824569471149e-01+j2.33806672428867046154e-02
  -9.99712753635698669896e-01+j2.39668561360341786370e-02
  -9.99698133513525655225e-01+j2.45691233148644418149e-02
  -9.99682731641169608494e-01+j2.51880135113948869230e-02
  -9.99666502366462816909e-01+j2.58240974120737404318e-02
  -9.99649396978733228991e-01+j2.64779733825380170220e-02
  -9.99631363464539735020e-01+j2.71502693359028345055e-02
  -9.99612346240027593858e-01+j2.78416447585372352214e-02
  -9.99592285857281215300e-01+j2.85527929088310802874e-02
  -9.99571118681719106291e-01+j2.92844432062119089388e-02
